Title: * .step'ed log file data
Date: N/A
Plotname: unknown
Flags: real forward
No. Variables: 8
No. Points: 35
Offset:   0.0000000000000000e+000
Command: Linear Technology Corporation LTspice IV
Variables:
	0	freq	step
	1	avg_in	unknown
	2	avg_sig	unknown
	3	re_in	unknown
	4	im_in	unknown
	5	re_sig	unknown
	6	im_sig	unknown
	7	gainmag	unknown
Values:
0		5.000000000000000e+003
	2.960160000000000e-008
	2.489620000000000e+000
	3.156700000000000e-005
	-4.950020000000000e-004
	-1.411370000000000e-002
	-8.611270000000001e-003
	3.045740000000000e+001
1		5.743490000000000e+003
	1.289990000000000e-007
	2.489620000000000e+000
	4.068300000000000e-004
	-2.838570000000000e-004
	-3.848770000000000e-003
	-1.902080000000000e-002
	3.184800000000000e+001
2		6.597540000000000e+003
	-3.884290000000000e-007
	2.489610000000000e+000
	4.105080000000000e-004
	2.783020000000000e-004
	1.832480000000000e-002
	-1.347090000000000e-002
	3.322830000000000e+001
3		7.578580000000000e+003
	-1.823790000000000e-007
	2.489670000000000e+000
	-4.960050000000000e-005
	4.930850000000000e-004
	2.476260000000000e-002
	9.848849999999999e-003
	3.461160000000000e+001
4		8.705510000000000e+003
	3.433770000000000e-007
	2.489630000000000e+000
	-4.954150000000000e-004
	-2.059900000000000e-005
	-8.105450000000000e-003
	3.014230000000000e-002
	3.597990000000000e+001
5		1.000000000000000e+004
	-2.788590000000000e-008
	2.489640000000000e+000
	7.472760000000001e-005
	-4.903380000000000e-004
	-3.479530000000000e-002
	-1.144310000000000e-002
	3.736680000000000e+001
6		1.148700000000000e+004
	-7.995990000000000e-007
	2.489590000000000e+000
	4.433830000000000e-004
	2.213970000000000e-004
	2.350620000000000e-002
	-3.625670000000000e-002
	3.880930000000000e+001
7		1.319510000000000e+004
	-1.463750000000000e-008
	2.489620000000000e+000
	-4.259620000000000e-004
	2.536980000000000e-004
	2.350270000000000e-002
	4.554790000000000e-002
	4.028860000000000e+001
8		1.515720000000000e+004
	-2.387800000000000e-007
	2.489730000000000e+000
	1.675970000000000e-004
	-4.669020000000000e-004
	-5.760130000000000e-002
	-2.116240000000000e-002
	4.184760000000000e+001
9		1.741100000000000e+004
	6.590630000000000e-010
	2.489620000000000e+000
	5.064740000000000e-005
	4.930080000000000e-004
	7.374509999999999e-002
	-1.149710000000000e-002
	4.355630000000000e+001
10		2.000000000000000e+004
	4.927780000000000e-010
	2.489620000000000e+000
	4.784450000000000e-005
	-4.932370000000000e-004
	-9.260470000000000e-002
	2.225410000000000e-003
	4.543340000000000e+001
11		2.297400000000000e+004
	-7.278560000000000e-009
	2.489620000000000e+000
	-3.069550000000000e-004
	3.887840000000000e-004
	1.062530000000000e-001
	5.276450000000000e-002
	4.758580000000000e+001
12		2.639020000000000e+004
	6.957960000000000e-009
	2.489620000000000e+000
	4.821570000000000e-004
	1.125210000000000e-004
	-1.626880000000000e-002
	-1.585920000000000e-001
	5.015700000000000e+001
13		3.031430000000000e+004
	6.019800000000000e-009
	2.489620000000000e+000
	2.710680000000000e-004
	-4.143230000000000e-004
	-2.300800000000000e-001
	-8.527450000000001e-003
	5.334940000000000e+001
14		3.482200000000000e+004
	9.324670000000000e-009
	2.489630000000000e+000
	-8.678470000000000e-005
	-4.870550000000000e-004
	-1.426150000000000e-001
	3.234740000000000e-001
	5.708090000000000e+001
15		4.000000000000000e+004
	9.768740000000000e-010
	2.489620000000000e+000
	3.673130000000000e-005
	-4.932030000000000e-004
	5.973140000000000e-002
	4.069390000000000e-001
	5.839860000000000e+001
16		4.594790000000000e+004
	1.040870000000000e-006
	2.489360000000000e+000
	4.596970000000000e-004
	-1.825340000000000e-004
	-9.466860000000001e-002
	2.665720000000000e-001
	5.514690000000000e+001
17		5.278030000000000e+004
	-6.414770000000000e-009
	2.489620000000000e+000
	-1.925210000000000e-004
	4.548220000000000e-004
	-1.275420000000000e-001
	-1.382140000000000e-001
	5.161370000000000e+001
18		6.062870000000000e+004
	6.302730000000000e-008
	2.489620000000000e+000
	3.897120000000000e-004
	-3.026350000000000e-004
	5.163200000000000e-002
	1.250060000000000e-001
	4.875840000000000e+001
19		6.964400000000000e+004
	-8.757990000000000e-009
	2.489620000000000e+000
	-1.999590000000000e-004
	-4.506950000000000e-004
	9.999920000000000e-002
	-2.555530000000000e-002
	4.641670000000000e+001
20		8.000000000000000e+004
	-4.362470000000000e-008
	2.489590000000000e+000
	1.046850000000000e-004
	-4.815590000000000e-004
	7.802670000000000e-002
	2.466200000000000e-002
	4.440490000000000e+001
21		9.189589999999999e+004
	1.572900000000000e-008
	2.489610000000000e+000
	2.593350000000000e-004
	4.181950000000000e-004
	-5.757190000000000e-002
	3.337390000000000e-002
	4.262170000000000e+001
22		1.055610000000000e+005
	2.054080000000000e-008
	2.489620000000000e+000
	3.748610000000000e-004
	-3.182180000000000e-004
	3.673510000000000e-002
	4.102710000000000e-002
	4.098400000000000e+001
23		1.212570000000000e+005
	-9.989399999999999e-008
	2.489620000000000e+000
	4.892310000000000e-004
	4.065360000000000e-005
	-1.628910000000000e-004
	4.612680000000000e-002
	3.945890000000000e+001
24		1.392880000000000e+005
	5.020280000000000e-009
	2.489610000000000e+000
	-3.367980000000000e-004
	-3.568580000000000e-004
	2.462230000000000e-002
	-3.028680000000000e-002
	3.801240000000000e+001
25		1.600000000000000e+005
	-3.414500000000000e-008
	2.489620000000000e+000
	3.538200000000000e-005
	-4.895170000000000e-004
	3.306100000000000e-002
	-3.698780000000000e-003
	3.662240000000000e+001
26		1.837920000000000e+005
	-3.155290000000000e-008
	2.489620000000000e+000
	-4.900340000000000e-004
	-3.517060000000000e-005
	-4.724590000000000e-003
	-2.805730000000000e-002
	3.525550000000000e+001
27		2.111210000000000e+005
	1.352750000000000e-008
	2.489620000000000e+000
	4.901710000000000e-004
	-3.611980000000000e-005
	8.818220000000000e-003
	2.270300000000000e-002
	3.390150000000000e+001
28		2.425150000000000e+005
	5.810800000000000e-008
	2.489630000000000e+000
	-1.494260000000000e-004
	4.682770000000000e-004
	-2.081410000000000e-002
	1.056320000000000e-003
	3.254710000000000e+001
29		2.785760000000000e+005
	2.897330000000000e-007
	2.489630000000000e+000
	-4.858390000000000e-004
	7.418070000000001e-005
	-9.776370000000000e-003
	-1.490490000000000e-002
	3.119070000000000e+001
30		3.200000000000000e+005
	2.690280000000000e-008
	2.489620000000000e+000
	1.376760000000000e-004
	-4.723410000000000e-004
	1.484530000000000e-002
	-3.358550000000000e-003
	2.980930000000000e+001
31		3.675830000000000e+005
	1.041390000000000e-007
	2.489630000000000e+000
	-1.746200000000000e-004
	4.597070000000000e-004
	-1.260240000000000e-002
	2.913060000000000e-003
	2.840020000000000e+001
32		4.222430000000000e+005
	-2.737320000000000e-007
	2.489610000000000e+000
	1.100990000000000e-004
	4.794430000000000e-004
	-6.718800000000000e-003
	8.643649999999999e-003
	2.694860000000000e+001
33		4.850290000000000e+005
	1.634330000000000e-007
	2.489630000000000e+000
	1.928530000000000e-004
	-4.520310000000000e-004
	8.527069999999999e-003
	-3.439880000000000e-003
	2.544120000000000e+001
34		5.000000000000000e+005
	-9.335850000000000e-008
	2.489620000000000e+000
	1.198240000000000e-005
	-4.913170000000000e-004
	6.254400000000000e-003
	-6.263250000000000e-003
	2.511030000000000e+001
