Title: * .step'ed log file data
Date: N/A
Plotname: unknown
Flags: real forward
No. Variables: 8
No. Points: 35
Offset:   0.0000000000000000e+000
Command: Linear Technology Corporation LTspice IV
Variables:
	0	freq	step
	1	avg_in	unknown
	2	avg_sig	unknown
	3	re_in	unknown
	4	im_in	unknown
	5	re_sig	unknown
	6	im_sig	unknown
	7	gainmag	unknown
Values:
0		5.000000000000000e+003
	2.960150000000000e-008
	2.489620000000000e+000
	3.156710000000000e-005
	-4.950020000000000e-004
	-1.411370000000000e-002
	-8.611270000000001e-003
	3.045740000000000e+001
1		5.743490000000000e+003
	1.498500000000000e-007
	2.489620000000000e+000
	4.068500000000000e-004
	-2.838590000000000e-004
	-3.847230000000000e-003
	-1.902090000000000e-002
	3.184760000000000e+001
2		6.597540000000000e+003
	-4.144190000000000e-007
	2.489610000000000e+000
	4.104820000000000e-004
	2.783040000000000e-004
	1.832580000000000e-002
	-1.347090000000000e-002
	3.322900000000000e+001
3		7.578580000000000e+003
	-2.239930000000000e-007
	2.489670000000000e+000
	-4.964220000000000e-005
	4.930880000000000e-004
	2.476160000000000e-002
	9.848910000000001e-003
	3.461120000000000e+001
4		8.705510000000000e+003
	3.456420000000000e-007
	2.489630000000000e+000
	-4.954120000000000e-004
	-2.060040000000000e-005
	-8.106920000000000e-003
	3.014240000000000e-002
	3.598000000000000e+001
5		1.000000000000000e+004
	1.488310000000000e-008
	2.489640000000000e+000
	7.477020000000001e-005
	-4.903400000000000e-004
	-3.479400000000000e-002
	-1.144320000000000e-002
	3.736640000000000e+001
6		1.148700000000000e+004
	-8.226170000000000e-007
	2.489590000000000e+000
	4.433600000000000e-004
	2.213980000000000e-004
	2.350940000000000e-002
	-3.625690000000000e-002
	3.881000000000000e+001
7		1.319510000000000e+004
	-3.510100000000000e-008
	2.489620000000000e+000
	-4.259830000000000e-004
	2.536990000000000e-004
	2.349830000000000e-002
	4.554810000000000e-002
	4.028800000000000e+001
8		1.515720000000000e+004
	-1.956640000000000e-007
	2.489730000000000e+000
	1.676400000000000e-004
	-4.669050000000000e-004
	-5.759890000000000e-002
	-2.116250000000000e-002
	4.184700000000000e+001
9		1.741100000000000e+004
	-4.795880000000000e-008
	2.489620000000000e+000
	5.059890000000000e-005
	4.930110000000000e-004
	7.374559999999999e-002
	-1.149710000000000e-002
	4.355640000000000e+001
10		2.000000000000000e+004
	5.000130000000000e-008
	2.489620000000000e+000
	4.789390000000000e-005
	-4.932400000000000e-004
	-9.260420000000000e-002
	2.225380000000000e-003
	4.543320000000000e+001
11		2.297400000000000e+004
	-4.554760000000000e-008
	2.489620000000000e+000
	-3.069940000000000e-004
	3.887870000000000e-004
	1.062460000000000e-001
	5.276490000000000e-002
	4.758490000000000e+001
12		2.639020000000000e+004
	-9.943400000000000e-009
	2.489640000000000e+000
	4.821400000000000e-004
	1.125220000000000e-004
	-1.625120000000000e-002
	-1.585930000000000e-001
	5.015730000000000e+001
13		3.031430000000000e+004
	5.101590000000000e-008
	2.489620000000000e+000
	2.711130000000000e-004
	-4.143260000000000e-004
	-2.300760000000000e-001
	-8.527669999999999e-003
	5.334880000000000e+001
14		3.482200000000000e+004
	7.008590000000000e-008
	2.489590000000000e+000
	-8.672410000000000e-005
	-4.870590000000000e-004
	-1.426530000000000e-001
	3.234760000000000e-001
	5.708150000000000e+001
15		4.000000000000000e+004
	6.528420000000000e-008
	2.489570000000000e+000
	3.679540000000000e-005
	-4.932070000000000e-004
	5.967750000000000e-002
	4.069430000000000e-001
	5.839840000000000e+001
16		4.594790000000000e+004
	1.060100000000000e-006
	2.489330000000000e+000
	4.597160000000000e-004
	-1.825350000000000e-004
	-9.470480000000001e-002
	2.665740000000000e-001
	5.514700000000000e+001
17		5.278030000000000e+004
	-7.307560000000000e-008
	2.489640000000000e+000
	-1.925870000000000e-004
	4.548270000000000e-004
	-1.275190000000000e-001
	-1.382160000000000e-001
	5.161250000000000e+001
18		6.062870000000000e+004
	1.064520000000000e-007
	2.489590000000000e+000
	3.897550000000000e-004
	-3.026380000000000e-004
	5.161040000000000e-002
	1.250080000000000e-001
	4.875730000000000e+001
19		6.964400000000000e+004
	7.734610000000000e-008
	2.489630000000000e+000
	-1.998730000000000e-004
	-4.507020000000000e-004
	1.000020000000000e-001
	-2.555550000000000e-002
	4.641740000000000e+001
20		8.000000000000000e+004
	5.159790000000000e-008
	2.489580000000000e+000
	1.047790000000000e-004
	-4.815670000000000e-004
	7.801970000000000e-002
	2.466260000000000e-002
	4.440370000000000e+001
21		9.189589999999999e+004
	-8.675670000000000e-008
	2.489610000000000e+000
	2.592330000000000e-004
	4.182040000000000e-004
	-5.757790000000000e-002
	3.337440000000000e-002
	4.262320000000000e+001
22		1.055610000000000e+005
	8.857580000000000e-008
	2.489610000000000e+000
	3.749280000000000e-004
	-3.182240000000000e-004
	3.672340000000000e-002
	4.102820000000000e-002
	4.098190000000000e+001
23		1.212570000000000e+005
	-1.050790000000000e-007
	2.489610000000000e+000
	4.892260000000001e-004
	4.065390000000000e-005
	-1.661100000000000e-004
	4.612690000000000e-002
	3.945910000000000e+001
24		1.392880000000000e+005
	1.417050000000000e-007
	2.489620000000000e+000
	-3.366630000000000e-004
	-3.568730000000000e-004
	2.463120000000000e-002
	-3.028780000000000e-002
	3.801520000000000e+001
25		1.600000000000000e+005
	7.978140000000000e-008
	2.489620000000000e+000
	3.549530000000000e-005
	-4.895270000000000e-004
	3.306080000000000e-002
	-3.698770000000000e-003
	3.662200000000000e+001
26		1.837920000000000e+005
	-2.744930000000000e-008
	2.489620000000000e+000
	-4.900300000000000e-004
	-3.517080000000000e-005
	-4.722820000000000e-003
	-2.805730000000000e-002
	3.525550000000000e+001
27		2.111210000000000e+005
	1.399240000000000e-008
	2.489620000000000e+000
	4.901720000000000e-004
	-3.611980000000000e-005
	8.816720000000000e-003
	2.270310000000000e-002
	3.390130000000000e+001
28		2.425150000000000e+005
	-7.295939999999999e-008
	2.489630000000000e+000
	-1.495570000000000e-004
	4.682900000000000e-004
	-2.081350000000000e-002
	1.056260000000000e-003
	3.254600000000000e+001
29		2.785760000000000e+005
	2.875940000000000e-007
	2.489630000000000e+000
	-4.858410000000000e-004
	7.418149999999999e-005
	-9.775690000000000e-003
	-1.490490000000000e-002
	3.119050000000000e+001
30		3.200000000000000e+005
	1.364980000000000e-007
	2.489620000000000e+000
	1.377840000000000e-004
	-4.723510000000000e-004
	1.484560000000000e-002
	-3.358580000000000e-003
	2.980880000000000e+001
31		3.675830000000000e+005
	-9.696280000000000e-009
	2.489630000000000e+000
	-1.747330000000000e-004
	4.597180000000000e-004
	-1.260270000000000e-002
	2.913090000000000e-003
	2.839950000000000e+001
32		4.222430000000000e+005
	-4.150720000000000e-007
	2.489610000000000e+000
	1.099590000000000e-004
	4.794570000000000e-004
	-6.720950000000000e-003
	8.643870000000000e-003
	2.695010000000000e+001
33		4.850290000000000e+005
	2.827360000000000e-007
	2.489630000000000e+000
	1.929710000000000e-004
	-4.520430000000000e-004
	8.527699999999999e-003
	-3.439940000000000e-003
	2.544080000000000e+001
34		5.000000000000000e+005
	1.415700000000000e-007
	2.489620000000000e+000
	1.221440000000000e-005
	-4.913470000000001e-004
	6.256770000000000e-003
	-6.263560000000000e-003
	2.511160000000000e+001
